T0D1C 000:007.961   SEGGER J-Link V6.86 Log File
T0D1C 000:008.183   DLL Compiled: Sep 24 2020 17:31:31
T0D1C 000:008.200   Logging started @ 2021-01-06 08:43
T0D1C 000:008.215 - 8.223ms
T0D1C 000:008.238 JLINK_SetWarnOutHandler(...)
T0D1C 000:008.257 - 0.026ms
T0D1C 000:008.275 JLINK_OpenEx(...)
T0D1C 000:010.342   Firmware: J-Link V10 compiled Sep 21 2020 16:57:59
T0D1C 000:010.595   Decompressing FW timestamp took 172 us
T0D1C 000:013.821   Hardware: V10.10
T0D1C 000:013.861   S/N: 260108658
T0D1C 000:013.884   OEM: SEGGER-EDU
T0D1C 000:013.906   Feature(s): FlashBP, GDB
T0D1C 000:016.561   TELNET listener socket opened on port 19021
T0D1C 000:016.814   WEBSRV Starting webserver
T0D1C 000:017.013   WEBSRV Webserver running on local port 19080
T0D1C 000:017.038 - 8.770ms returns "O.K."
T0D1C 000:017.067 JLINK_GetEmuCaps()
T0D1C 000:017.082 - 0.023ms returns 0xB9FF7BBF
T0D1C 000:017.105 JLINK_TIF_GetAvailable(...)
T0D1C 000:017.463 - 0.374ms
T0D1C 000:017.497 JLINK_SetErrorOutHandler(...)
T0D1C 000:017.516 - 0.027ms
T0D1C 000:017.549 JLINK_ExecCommand("ProjectFile = "C:\TarazWorkDir\PEControl card\test project\app\JLinkSettings.ini"", ...). 
T0D1C 000:026.317   Ref file found at: C:\Keil_v5\ARM\Segger\JLinkDevices.ref
T0D1C 000:026.530   XML referenced by ref file: C:\Program Files (x86)\SEGGER\JLink\JLinkDevices.xml
T0D1C 000:027.616   C:\Program Files (x86)\SEGGER\JLink\JLinkDevices.xml evaluated successfully.
T0D1C 000:119.365   Device "MKV56F1M0XXX24" selected.
T0D1C 000:119.761 - 102.222ms returns 0x00
T0D1C 000:123.495 JLINK_ExecCommand("Device = MKV58F1M0VLQ24", ...). 
T0D1C 000:127.838   Device "MKV56F1M0XXX24" selected.
T0D1C 000:128.213 - 4.704ms returns 0x00
T0D1C 000:128.245 JLINK_GetHardwareVersion()
T0D1C 000:128.259 - 0.021ms returns 101000
T0D1C 000:128.284 JLINK_GetDLLVersion()
T0D1C 000:128.298 - 0.021ms returns 68600
T0D1C 000:128.315 JLINK_GetOEMString(...)
T0D1C 000:139.622 JLINK_GetDLLVersion()
T0D1C 000:139.654 - 0.039ms returns 68600
T0D1C 000:139.672 JLINK_GetCompileDateTime()
T0D1C 000:139.686 - 0.021ms
T0D1C 000:143.330 JLINK_GetFirmwareString(...)
T0D1C 000:143.349 - 0.026ms
T0D1C 000:146.923 JLINK_GetHardwareVersion()
T0D1C 000:146.941 - 0.026ms returns 101000
T0D1C 000:150.507 JLINK_GetSN()
T0D1C 000:150.527 - 0.027ms returns 260108658
T0D1C 000:154.434 JLINK_GetOEMString(...)
T0D1C 000:165.630 JLINK_TIF_Select(JLINKARM_TIF_SWD)
T0D1C 000:167.200 - 1.590ms returns 0x00
T0D1C 000:167.237 JLINK_HasError()
T0D1C 000:167.267 JLINK_SetSpeed(5000)
T0D1C 000:167.591 - 0.340ms
T0D1C 000:167.624 JLINK_GetId()
T0D1C 000:172.133   InitTarget()
T0D1C 000:231.982   Found SW-DP with ID 0x5BA02477
T0D1C 000:238.478   DPIDR: 0x5BA02477
T0D1C 000:242.185   Scanning AP map to find all available APs
T0D1C 000:247.597   AP[2]: Stopped AP scan as end of AP map has been reached
T0D1C 000:252.048   AP[0]: AHB-AP (IDR: 0x64770001)
T0D1C 000:255.812   AP[1]: JTAG-AP (IDR: 0x001C0030)
T0D1C 000:260.140   Iterating through AP map to find AHB-AP to use
T0D1C 000:264.899   AP[0]: Core found
T0D1C 000:269.382   AP[0]: AHB-AP ROM base: 0xE00FD000
T0D1C 000:273.824   CPUID register: 0x410FC272. Implementer code: 0x41 (ARM)
T0D1C 000:277.456   Found Cortex-M7 r0p2, Little endian.
T0D1C 000:379.813   -- Max. mem block: 0x000045C0
T0D1C 000:381.091   CPU_ReadMem(4 bytes @ 0xE000EDF0)
T0D1C 000:381.811   CPU_WriteMem(4 bytes @ 0xE000EDF0)
T0D1C 000:382.446   CPU_ReadMem(4 bytes @ 0xE0002000)
T0D1C 000:393.313   FPUnit: 8 code (BP) slots and 0 literal slots
T0D1C 000:393.382   CPU_ReadMem(4 bytes @ 0xE000EDFC)
T0D1C 000:394.079   CPU_WriteMem(4 bytes @ 0xE000EDFC)
T0D1C 000:394.816   CPU_ReadMem(4 bytes @ 0xE0001000)
T0D1C 000:395.395   CPU_WriteMem(4 bytes @ 0xE0001000)
T0D1C 000:396.008   CPU_ReadMem(4 bytes @ 0xE000ED88)
T0D1C 000:396.656   CPU_WriteMem(4 bytes @ 0xE000ED88)
T0D1C 000:397.283   CPU_ReadMem(4 bytes @ 0xE000ED88)
T0D1C 000:397.866   CPU_WriteMem(4 bytes @ 0xE000ED88)
T0D1C 000:407.653   CoreSight components:
T0D1C 000:418.960   ROMTbl[0] @ E00FD000
T0D1C 000:419.213   CPU_ReadMem(64 bytes @ 0xE00FD000)
T0D1C 000:420.123   CPU_ReadMem(32 bytes @ 0xE00FEFE0)
T0D1C 000:429.243   ROMTbl[0][0]: E00FE000, CID: B105100D, PID: 000BB4C8 ROM Table
T0D1C 000:433.889   ROMTbl[1] @ E00FE000
T0D1C 000:433.928   CPU_ReadMem(64 bytes @ 0xE00FE000)
T0D1C 000:434.813   CPU_ReadMem(32 bytes @ 0xE00FFFE0)
T0D1C 000:441.159   ROMTbl[1][0]: E00FF000, CID: B105100D, PID: 000BB4C7 ROM Table
T0D1C 000:445.321   ROMTbl[2] @ E00FF000
T0D1C 000:445.356   CPU_ReadMem(64 bytes @ 0xE00FF000)
T0D1C 000:446.143   CPU_ReadMem(32 bytes @ 0xE000EFE0)
T0D1C 000:451.011   ROMTbl[2][0]: E000E000, CID: B105E00D, PID: 000BB00C SCS-M7
T0D1C 000:451.051   CPU_ReadMem(32 bytes @ 0xE0001FE0)
T0D1C 000:455.989   ROMTbl[2][1]: E0001000, CID: B105E00D, PID: 000BB002 DWT
T0D1C 000:456.027   CPU_ReadMem(32 bytes @ 0xE0002FE0)
T0D1C 000:460.718   ROMTbl[2][2]: E0002000, CID: B105E00D, PID: 000BB00E FPB-M7
T0D1C 000:460.746   CPU_ReadMem(32 bytes @ 0xE0000FE0)
T0D1C 000:465.110   ROMTbl[2][3]: E0000000, CID: B105E00D, PID: 000BB001 ITM
T0D1C 000:465.138   CPU_ReadMem(32 bytes @ 0xE0041FE0)
T0D1C 000:469.466   ROMTbl[1][1]: E0041000, CID: B105900D, PID: 001BB975 ETM-M7
T0D1C 000:469.498   CPU_ReadMem(32 bytes @ 0xE0040FE0)
T0D1C 000:473.946   ROMTbl[0][1]: E0040000, CID: B105900D, PID: 000BB9A9 TPIU-M7
T0D1C 000:473.974   CPU_ReadMem(4 bytes @ 0xE000ED78)
T0D1C 000:478.450   Cache: Separate I- and D-cache.
T0D1C 000:478.498   CPU_WriteMem(4 bytes @ 0xE000ED84)
T0D1C 000:479.007   CPU_ReadMem(4 bytes @ 0xE000ED80)
T0D1C 000:484.046   I-Cache L1: 16 KB, 256 Sets, 32 Bytes/Line, 2-Way
T0D1C 000:484.080   CPU_WriteMem(4 bytes @ 0xE000ED84)
T0D1C 000:484.666   CPU_ReadMem(4 bytes @ 0xE000ED80)
T0D1C 000:488.952   D-Cache L1: 8 KB, 64 Sets, 32 Bytes/Line, 4-Way
T0D1C 000:489.397 - 321.784ms returns 0x5BA02477
T0D1C 000:489.427 JLINK_GetDLLVersion()
T0D1C 000:489.442 - 0.021ms returns 68600
T0D1C 000:489.461 JLINK_CORE_GetFound()
T0D1C 000:489.476 - 0.022ms returns 0xE0100FF
T0D1C 000:489.494 JLINK_GetDebugInfo(0x100 = JLINKARM_ROM_TABLE_ADDR_INDEX)
T0D1C 000:489.509   Value=0xE00FD000
T0D1C 000:489.530 - 0.043ms returns 0
T0D1C 000:493.313 JLINK_GetDebugInfo(0x100 = JLINKARM_ROM_TABLE_ADDR_INDEX)
T0D1C 000:493.334   Value=0xE00FD000
T0D1C 000:493.355 - 0.048ms returns 0
T0D1C 000:493.372 JLINK_GetDebugInfo(0x101 = JLINKARM_DEBUG_INFO_ETM_ADDR_INDEX)
T0D1C 000:493.387   Value=0xE0041000
T0D1C 000:493.451 - 0.089ms returns 0
T0D1C 000:493.481 JLINK_ReadMemEx(0xE0041FD0, 0x20 Bytes, Flags = 0x02000004)
T0D1C 000:493.525   CPU_ReadMem(32 bytes @ 0xE0041FD0)
T0D1C 000:494.100   Data:  04 00 00 00 00 00 00 00 00 00 00 00 00 00 00 00 ...
T0D1C 000:494.126 - 0.651ms returns 32 (0x20)
T0D1C 000:494.145 JLINK_GetDebugInfo(0x102 = JLINKARM_DEBUG_INFO_MTB_ADDR_INDEX)
T0D1C 000:494.160   Value=0x00000000
T0D1C 000:494.180 - 0.042ms returns 0
T0D1C 000:494.209 JLINK_GetDebugInfo(0x103 = JLINKARM_DEBUG_INFO_TPIU_ADDR_INDEX)
T0D1C 000:494.235   Value=0xE0040000
T0D1C 000:494.257 - 0.056ms returns 0
T0D1C 000:494.275 JLINK_GetDebugInfo(0x104 = JLINKARM_DEBUG_INFO_ITM_ADDR_INDEX)
T0D1C 000:494.301   Value=0xE0000000
T0D1C 000:494.322 - 0.055ms returns 0
T0D1C 000:494.351 JLINK_GetDebugInfo(0x105 = JLINKARM_DEBUG_INFO_DWT_ADDR_INDEX)
T0D1C 000:494.367   Value=0xE0001000
T0D1C 000:494.390 - 0.057ms returns 0
T0D1C 000:494.419 JLINK_GetDebugInfo(0x106 = JLINKARM_DEBUG_INFO_FPB_ADDR_INDEX)
T0D1C 000:494.433   Value=0xE0002000
T0D1C 000:494.454 - 0.042ms returns 0
T0D1C 000:494.471 JLINK_GetDebugInfo(0x107 = JLINKARM_DEBUG_INFO_NVIC_ADDR_INDEX)
T0D1C 000:494.486   Value=0xE000E000
T0D1C 000:494.507 - 0.054ms returns 0
T0D1C 000:494.536 JLINK_GetDebugInfo(0x10C = JLINKARM_DEBUG_INFO_DBG_ADDR_INDEX)
T0D1C 000:494.551   Value=0xE000EDF0
T0D1C 000:494.573 - 0.056ms returns 0
T0D1C 000:494.601 JLINK_GetDebugInfo(0x01 = Unknown)
T0D1C 000:494.628   Value=0x00000001
T0D1C 000:494.649 - 0.055ms returns 0
T0D1C 000:494.679 JLINK_ReadMemU32(0xE000ED00, 0x1 Items)
T0D1C 000:494.702   CPU_ReadMem(4 bytes @ 0xE000ED00)
T0D1C 000:495.215   Data:  72 C2 0F 41
T0D1C 000:495.240   Debug reg: CPUID
T0D1C 000:495.261 - 0.588ms returns 1 (0x1)
T0D1C 000:495.279 JLINK_GetDebugInfo(0x10F = JLINKARM_DEBUG_INFO_HAS_CORTEX_M_SECURITY_EXT_INDEX)
T0D1C 000:495.294   Value=0x00000000
T0D1C 000:495.315 - 0.042ms returns 0
T0D1C 000:495.332 JLINK_HasError()
T0D1C 000:495.349 JLINK_SetResetType(JLINKARM_CM3_RESET_TYPE_NORMAL)
T0D1C 000:495.364 - 0.021ms returns JLINKARM_CM3_RESET_TYPE_NORMAL
T0D1C 000:495.381 JLINK_Reset()
T0D1C 000:495.413   CPU is running
T0D1C 000:495.436   CPU_WriteMem(4 bytes @ 0xE000EDF0)
T0D1C 000:496.007   CPU is running
T0D1C 000:496.034   CPU_WriteMem(4 bytes @ 0xE000EDFC)
T0D1C 000:500.791   Reset: Halt core after reset via DEMCR.VC_CORERESET.
T0D1C 000:505.718   Reset: Reset device via AIRCR.SYSRESETREQ.
T0D1C 000:505.758   CPU is running
T0D1C 000:505.784   CPU_WriteMem(4 bytes @ 0xE000ED0C)
T0D1C 000:660.074   CPU_ReadMem(4 bytes @ 0xE000EDF0)
T0D1C 000:660.826   CPU_ReadMem(4 bytes @ 0xE000EDF0)
T0D1C 000:661.565   CPU is running
T0D1C 000:661.639   CPU_WriteMem(4 bytes @ 0xE000EDF0)
T0D1C 000:662.316   CPU is running
T0D1C 000:662.389   CPU_WriteMem(4 bytes @ 0xE000EDFC)
T0D1C 000:668.813   CPU_ReadMem(4 bytes @ 0xE000EDF0)
T0D1C 000:680.725   AfterResetTarget()
T0D1C 000:719.235   CPU_WriteMem(4 bytes @ 0xE0002000)
T0D1C 000:719.845   CPU_ReadMem(4 bytes @ 0xE000EDFC)
T0D1C 000:720.343   CPU_ReadMem(4 bytes @ 0xE0001000)
T0D1C 000:720.876 - 225.518ms
T0D1C 000:720.938 JLINK_Halt()
T0D1C 000:720.972 - 0.050ms returns 0x00
T0D1C 000:721.015 JLINK_ReadMemU32(0xE000EDF0, 0x1 Items)
T0D1C 000:721.064   CPU_ReadMem(4 bytes @ 0xE000EDF0)
T0D1C 000:721.601   Data:  0B 00 03 00
T0D1C 000:721.662   Debug reg: DHCSR
T0D1C 000:721.708 - 0.709ms returns 1 (0x1)
T0D1C 000:721.859 JLINK_WriteU32_64(0xE000EDF0, 0xA05F0003)
T0D1C 000:721.913   Debug reg: DHCSR
T0D1C 000:721.994   CPU_WriteMem(4 bytes @ 0xE000EDF0)
T0D1C 000:722.473 - 0.639ms returns 0 (0x00000000)
T0D1C 000:722.528 JLINK_WriteU32_64(0xE000EDFC, 0x01000000)
T0D1C 000:722.563   Debug reg: DEMCR
T0D1C 000:722.621   CPU_WriteMem(4 bytes @ 0xE000EDFC)
T0D1C 000:723.097 - 0.593ms returns 0 (0x00000000)
T0D1C 000:756.087 JLINK_GetHWStatus(...)
T0D1C 000:756.804 - 0.754ms returns 0
T0D1C 000:771.360 JLINK_GetNumBPUnits(Type = 0xFFFFFF00)
T0D1C 000:771.399 - 0.047ms returns 0x08
T0D1C 000:771.417 JLINK_GetNumBPUnits(Type = 0xF0)
T0D1C 000:771.432 - 0.022ms returns 0x2000
T0D1C 000:771.449 JLINK_GetNumWPUnits()
T0D1C 000:771.463 - 0.021ms returns 4
T0D1C 000:782.280 JLINK_GetSpeed()
T0D1C 000:782.310 - 0.036ms returns 5000
T0D1C 000:789.463 JLINK_ReadMemU32(0xE000E004, 0x1 Items)
T0D1C 000:789.507   CPU_ReadMem(4 bytes @ 0xE000E004)
T0D1C 000:790.062   Data:  03 00 00 00
T0D1C 000:790.098 - 0.644ms returns 1 (0x1)
T0D1C 000:790.120 JLINK_ReadMemU32(0xE000E004, 0x1 Items)
T0D1C 000:790.142   CPU_ReadMem(4 bytes @ 0xE000E004)
T0D1C 000:790.689   Data:  03 00 00 00
T0D1C 000:790.724 - 0.612ms returns 1 (0x1)
T0D1C 000:790.746 JLINK_WriteMemEx(0xE0001000, 0x0000001C Bytes, Flags = 0x02000004)
T0D1C 000:790.762   Data:  01 00 00 00 00 00 00 00 00 00 00 00 00 00 00 00 ...
T0D1C 000:791.078   CPU_WriteMem(28 bytes @ 0xE0001000)
T0D1C 000:791.768 - 1.040ms returns 0x1C
T0D1C 000:791.805 JLINK_Halt()
T0D1C 000:791.822 - 0.023ms returns 0x00
T0D1C 000:791.838 JLINK_IsHalted()
T0D1C 000:791.854 - 0.022ms returns TRUE
T0D1C 000:797.287 JLINK_WriteMem(0x20000000, 0x590 Bytes, ...)
T0D1C 000:797.308   Data:  00 BE 0A E0 0D 78 2D 06 68 40 08 24 40 00 00 D3 ...
T0D1C 000:797.615   CPU_WriteMem(1424 bytes @ 0x20000000)
T0D1C 000:802.129 - 4.859ms returns 0x590
T0D1C 000:802.260 JLINK_HasError()
T0D1C 000:802.285 JLINK_WriteReg(R0, 0x10000000)
T0D1C 000:802.316 - 0.049ms returns 0
T0D1C 000:802.345 JLINK_WriteReg(R1, 0x00B71B00)
T0D1C 000:802.361 - 0.023ms returns 0
T0D1C 000:802.378 JLINK_WriteReg(R2, 0x00000001)
T0D1C 000:802.394 - 0.022ms returns 0
T0D1C 000:802.411 JLINK_WriteReg(R3, 0x00000000)
T0D1C 000:802.434 - 0.032ms returns 0
T0D1C 000:802.454 JLINK_WriteReg(R4, 0x00000000)
T0D1C 000:802.469 - 0.022ms returns 0
T0D1C 000:802.486 JLINK_WriteReg(R5, 0x00000000)
T0D1C 000:802.502 - 0.022ms returns 0
T0D1C 000:802.519 JLINK_WriteReg(R6, 0x00000000)
T0D1C 000:802.534 - 0.022ms returns 0
T0D1C 000:802.552 JLINK_WriteReg(R7, 0x00000000)
T0D1C 000:802.567 - 0.023ms returns 0
T0D1C 000:802.584 JLINK_WriteReg(R8, 0x00000000)
T0D1C 000:802.607 - 0.030ms returns 0
T0D1C 000:802.625 JLINK_WriteReg(R9, 0x20000588)
T0D1C 000:802.640 - 0.022ms returns 0
T0D1C 000:802.657 JLINK_WriteReg(R10, 0x00000000)
T0D1C 000:802.673 - 0.023ms returns 0
T0D1C 000:802.691 JLINK_WriteReg(R11, 0x00000000)
T0D1C 000:802.706 - 0.023ms returns 0
T0D1C 000:802.723 JLINK_WriteReg(R12, 0x00000000)
T0D1C 000:802.739 - 0.023ms returns 0
T0D1C 000:802.756 JLINK_WriteReg(R13 (SP), 0x20001000)
T0D1C 000:802.773 - 0.024ms returns 0
T0D1C 000:802.790 JLINK_WriteReg(R14, 0x20000001)
T0D1C 000:802.805 - 0.022ms returns 0
T0D1C 000:802.823 JLINK_WriteReg(R15 (PC), 0x20000020)
T0D1C 000:802.841 - 0.026ms returns 0
T0D1C 000:802.858 JLINK_WriteReg(XPSR, 0x01000000)
T0D1C 000:802.874 - 0.023ms returns 0
T0D1C 000:802.891 JLINK_WriteReg(MSP, 0x20001000)
T0D1C 000:802.907 - 0.023ms returns 0
T0D1C 000:802.924 JLINK_WriteReg(PSP, 0x20001000)
T0D1C 000:802.940 - 0.022ms returns 0
T0D1C 000:802.958 JLINK_WriteReg(CFBP, 0x00000000)
T0D1C 000:802.974 - 0.023ms returns 0
T0D1C 000:802.992 JLINK_SetBPEx(Addr = 0x20000000, Type = 0xFFFFFFF2)
T0D1C 000:803.009 - 0.025ms returns 0x00000001
T0D1C 000:803.027 JLINK_Go()
T0D1C 000:803.048   CPU_WriteMem(4 bytes @ 0xE0002000)
T0D1C 000:803.698   CPU_ReadMem(4 bytes @ 0xE0001000)
T0D1C 000:804.276   CPU_WriteMem(4 bytes @ 0xE0002008)
T0D1C 000:804.307   CPU_WriteMem(4 bytes @ 0xE000200C)
T0D1C 000:804.333   CPU_WriteMem(4 bytes @ 0xE0002010)
T0D1C 000:804.356   CPU_WriteMem(4 bytes @ 0xE0002014)
T0D1C 000:804.378   CPU_WriteMem(4 bytes @ 0xE0002018)
T0D1C 000:804.400   CPU_WriteMem(4 bytes @ 0xE000201C)
T0D1C 000:804.422   CPU_WriteMem(4 bytes @ 0xE0002020)
T0D1C 000:804.444   CPU_WriteMem(4 bytes @ 0xE0002024)
T0D1C 000:805.750   CPU_WriteMem(4 bytes @ 0xE0001004)
T0D1C 000:808.647 - 5.630ms
T0D1C 000:808.672 JLINK_IsHalted()
T0D1C 000:810.836 - 2.175ms returns TRUE
T0D1C 000:810.869 JLINK_ReadReg(R15 (PC))
T0D1C 000:810.897 - 0.036ms returns 0x20000000
T0D1C 000:810.915 JLINK_ClrBPEx(BPHandle = 0x00000001)
T0D1C 000:810.930 - 0.022ms returns 0x00
T0D1C 000:810.948 JLINK_ReadReg(R0)
T0D1C 000:810.963 - 0.022ms returns 0x00000000
T0D1C 000:811.640 JLINK_HasError()
T0D1C 000:811.662 JLINK_WriteReg(R0, 0x10000000)
T0D1C 000:811.679 - 0.024ms returns 0
T0D1C 000:811.696 JLINK_WriteReg(R1, 0x00B71B00)
T0D1C 000:811.711 - 0.022ms returns 0
T0D1C 000:811.728 JLINK_WriteReg(R2, 0x00000001)
T0D1C 000:811.744 - 0.023ms returns 0
T0D1C 000:811.761 JLINK_WriteReg(R3, 0x00000000)
T0D1C 000:811.776 - 0.022ms returns 0
T0D1C 000:811.793 JLINK_WriteReg(R4, 0x00000000)
T0D1C 000:811.808 - 0.022ms returns 0
T0D1C 000:811.825 JLINK_WriteReg(R5, 0x00000000)
T0D1C 000:811.840 - 0.022ms returns 0
T0D1C 000:811.856 JLINK_WriteReg(R6, 0x00000000)
T0D1C 000:811.871 - 0.022ms returns 0
T0D1C 000:811.888 JLINK_WriteReg(R7, 0x00000000)
T0D1C 000:811.903 - 0.022ms returns 0
T0D1C 000:811.920 JLINK_WriteReg(R8, 0x00000000)
T0D1C 000:811.935 - 0.022ms returns 0
T0D1C 000:811.952 JLINK_WriteReg(R9, 0x20000588)
T0D1C 000:811.967 - 0.022ms returns 0
T0D1C 000:811.983 JLINK_WriteReg(R10, 0x00000000)
T0D1C 000:811.999 - 0.022ms returns 0
T0D1C 000:812.015 JLINK_WriteReg(R11, 0x00000000)
T0D1C 000:812.030 - 0.022ms returns 0
T0D1C 000:812.047 JLINK_WriteReg(R12, 0x00000000)
T0D1C 000:812.062 - 0.022ms returns 0
T0D1C 000:812.079 JLINK_WriteReg(R13 (SP), 0x20001000)
T0D1C 000:812.094 - 0.022ms returns 0
T0D1C 000:812.111 JLINK_WriteReg(R14, 0x20000001)
T0D1C 000:812.126 - 0.022ms returns 0
T0D1C 000:812.143 JLINK_WriteReg(R15 (PC), 0x2000008C)
T0D1C 000:812.239 - 0.106ms returns 0
T0D1C 000:812.260 JLINK_WriteReg(XPSR, 0x01000000)
T0D1C 000:812.275 - 0.022ms returns 0
T0D1C 000:812.292 JLINK_WriteReg(MSP, 0x20001000)
T0D1C 000:812.307 - 0.022ms returns 0
T0D1C 000:812.323 JLINK_WriteReg(PSP, 0x20001000)
T0D1C 000:812.338 - 0.022ms returns 0
T0D1C 000:812.355 JLINK_WriteReg(CFBP, 0x00000000)
T0D1C 000:812.370 - 0.022ms returns 0
T0D1C 000:812.387 JLINK_SetBPEx(Addr = 0x20000000, Type = 0xFFFFFFF2)
T0D1C 000:812.403 - 0.023ms returns 0x00000002
T0D1C 000:812.420 JLINK_Go()
T0D1C 000:812.438   CPU_WriteMem(4 bytes @ 0xE0002000)
T0D1C 000:813.035   CPU_ReadMem(4 bytes @ 0xE0001000)
T0D1C 000:815.893 - 3.483ms
T0D1C 000:815.917 JLINK_IsHalted()
T0D1C 000:816.528 - 0.621ms returns FALSE
T0D1C 000:816.552 JLINK_HasError()
T0D1C 000:836.590 JLINK_IsHalted()
T0D1C 000:837.135 - 0.560ms returns FALSE
T0D1C 000:837.165 JLINK_HasError()
T0D1C 000:838.552 JLINK_IsHalted()
T0D1C 000:839.150 - 0.609ms returns FALSE
T0D1C 000:839.175 JLINK_HasError()
T0D1C 000:841.165 JLINK_IsHalted()
T0D1C 000:841.634 - 0.479ms returns FALSE
T0D1C 000:841.659 JLINK_HasError()
T0D1C 000:843.648 JLINK_IsHalted()
T0D1C 000:844.183 - 0.545ms returns FALSE
T0D1C 000:844.207 JLINK_HasError()
T0D1C 000:846.214 JLINK_IsHalted()
T0D1C 000:846.804 - 0.601ms returns FALSE
T0D1C 000:846.828 JLINK_HasError()
T0D1C 000:848.220 JLINK_IsHalted()
T0D1C 000:848.811 - 0.601ms returns FALSE
T0D1C 000:848.834 JLINK_HasError()
T0D1C 000:850.841 JLINK_IsHalted()
T0D1C 000:851.422 - 0.604ms returns FALSE
T0D1C 000:851.476 JLINK_HasError()
T0D1C 000:852.846 JLINK_IsHalted()
T0D1C 000:853.422 - 0.614ms returns FALSE
T0D1C 000:853.498 JLINK_HasError()
T0D1C 000:855.449 JLINK_IsHalted()
T0D1C 000:856.065 - 0.653ms returns FALSE
T0D1C 000:856.132 JLINK_HasError()
T0D1C 000:858.080 JLINK_IsHalted()
T0D1C 000:858.684 - 0.641ms returns FALSE
T0D1C 000:858.751 JLINK_HasError()
T0D1C 000:860.062 JLINK_IsHalted()
T0D1C 000:860.676 - 0.638ms returns FALSE
T0D1C 000:860.730 JLINK_HasError()
T0D1C 000:862.700 JLINK_IsHalted()
T0D1C 000:863.300 - 0.623ms returns FALSE
T0D1C 000:863.353 JLINK_HasError()
T0D1C 000:865.303 JLINK_IsHalted()
T0D1C 000:865.929 - 0.649ms returns FALSE
T0D1C 000:865.983 JLINK_HasError()
T0D1C 000:867.957 JLINK_IsHalted()
T0D1C 000:868.649 - 0.730ms returns FALSE
T0D1C 000:868.717 JLINK_HasError()
T0D1C 000:869.953 JLINK_IsHalted()
T0D1C 000:870.521 - 0.593ms returns FALSE
T0D1C 000:870.577 JLINK_HasError()
T0D1C 000:871.945 JLINK_IsHalted()
T0D1C 000:872.611 - 0.691ms returns FALSE
T0D1C 000:872.667 JLINK_HasError()
T0D1C 000:873.950 JLINK_IsHalted()
T0D1C 000:874.551 - 0.626ms returns FALSE
T0D1C 000:874.606 JLINK_HasError()
T0D1C 000:876.557 JLINK_IsHalted()
T0D1C 000:877.152 - 0.619ms returns FALSE
T0D1C 000:877.206 JLINK_HasError()
T0D1C 000:879.163 JLINK_IsHalted()
T0D1C 000:879.811 - 0.672ms returns FALSE
T0D1C 000:879.870 JLINK_HasError()
T0D1C 000:881.155 JLINK_IsHalted()
T0D1C 000:881.794 - 0.663ms returns FALSE
T0D1C 000:881.848 JLINK_HasError()
T0D1C 000:883.171 JLINK_IsHalted()
T0D1C 000:883.816 - 0.669ms returns FALSE
T0D1C 000:883.870 JLINK_HasError()
T0D1C 000:885.803 JLINK_IsHalted()
T0D1C 000:886.398 - 0.619ms returns FALSE
T0D1C 000:886.452 JLINK_HasError()
T0D1C 000:888.403 JLINK_IsHalted()
T0D1C 000:889.048 - 0.668ms returns FALSE
T0D1C 000:889.101 JLINK_HasError()
T0D1C 000:890.403 JLINK_IsHalted()
T0D1C 000:891.058 - 0.680ms returns FALSE
T0D1C 000:891.112 JLINK_HasError()
T0D1C 000:893.053 JLINK_IsHalted()
T0D1C 000:893.682 - 0.654ms returns FALSE
T0D1C 000:893.736 JLINK_HasError()
T0D1C 000:895.678 JLINK_IsHalted()
T0D1C 000:896.303 - 0.648ms returns FALSE
T0D1C 000:896.356 JLINK_HasError()
T0D1C 000:898.339 JLINK_IsHalted()
T0D1C 000:898.934 - 0.620ms returns FALSE
T0D1C 000:898.988 JLINK_HasError()
T0D1C 000:900.310 JLINK_IsHalted()
T0D1C 000:900.936 - 0.650ms returns FALSE
T0D1C 000:900.990 JLINK_HasError()
T0D1C 000:902.305 JLINK_IsHalted()
T0D1C 000:902.909 - 0.629ms returns FALSE
T0D1C 000:902.973 JLINK_HasError()
T0D1C 000:904.339 JLINK_IsHalted()
T0D1C 000:905.037 - 0.736ms returns FALSE
T0D1C 000:905.112 JLINK_HasError()
T0D1C 000:906.332 JLINK_IsHalted()
T0D1C 000:906.896 - 0.600ms returns FALSE
T0D1C 000:906.961 JLINK_HasError()
T0D1C 000:908.303 JLINK_IsHalted()
T0D1C 000:908.931 - 0.652ms returns FALSE
T0D1C 000:908.986 JLINK_HasError()
T0D1C 000:910.941 JLINK_IsHalted()
T0D1C 000:911.559 - 0.643ms returns FALSE
T0D1C 000:911.613 JLINK_HasError()
T0D1C 000:912.934 JLINK_IsHalted()
T0D1C 000:913.548 - 0.638ms returns FALSE
T0D1C 000:913.603 JLINK_HasError()
T0D1C 000:914.931 JLINK_IsHalted()
T0D1C 000:915.572 - 0.666ms returns FALSE
T0D1C 000:915.628 JLINK_HasError()
T0D1C 000:917.456 JLINK_IsHalted()
T0D1C 000:918.028 - 0.596ms returns FALSE
T0D1C 000:918.082 JLINK_HasError()
T0D1C 000:920.032 JLINK_IsHalted()
T0D1C 000:920.645 - 0.637ms returns FALSE
T0D1C 000:920.699 JLINK_HasError()
T0D1C 000:922.033 JLINK_IsHalted()
T0D1C 000:922.625 - 0.616ms returns FALSE
T0D1C 000:922.679 JLINK_HasError()
T0D1C 000:924.630 JLINK_IsHalted()
T0D1C 000:925.277 - 0.671ms returns FALSE
T0D1C 000:925.331 JLINK_HasError()
T0D1C 000:927.281 JLINK_IsHalted()
T0D1C 000:927.875 - 0.617ms returns FALSE
T0D1C 000:927.928 JLINK_HasError()
T0D1C 000:929.894 JLINK_IsHalted()
T0D1C 000:930.500 - 0.643ms returns FALSE
T0D1C 000:930.572 JLINK_HasError()
T0D1C 000:934.876 JLINK_IsHalted()
T0D1C 000:935.576 - 0.725ms returns FALSE
T0D1C 000:935.631 JLINK_HasError()
T0D1C 000:937.533 JLINK_IsHalted()
T0D1C 000:938.207 - 0.698ms returns FALSE
T0D1C 000:938.261 JLINK_HasError()
T0D1C 000:940.184 JLINK_IsHalted()
T0D1C 000:940.839 - 0.680ms returns FALSE
T0D1C 000:940.894 JLINK_HasError()
T0D1C 000:942.806 JLINK_IsHalted()
T0D1C 000:943.447 - 0.665ms returns FALSE
T0D1C 000:943.501 JLINK_HasError()
T0D1C 000:944.800 JLINK_IsHalted()
T0D1C 000:945.464 - 0.689ms returns FALSE
T0D1C 000:945.519 JLINK_HasError()
T0D1C 000:946.798 JLINK_IsHalted()
T0D1C 000:947.470 - 0.697ms returns FALSE
T0D1C 000:947.525 JLINK_HasError()
T0D1C 000:949.432 JLINK_IsHalted()
T0D1C 000:950.089 - 0.682ms returns FALSE
T0D1C 000:950.144 JLINK_HasError()
T0D1C 000:952.049 JLINK_IsHalted()
T0D1C 000:952.713 - 0.688ms returns FALSE
T0D1C 000:952.768 JLINK_HasError()
T0D1C 000:954.049 JLINK_IsHalted()
T0D1C 000:954.719 - 0.695ms returns FALSE
T0D1C 000:954.774 JLINK_HasError()
T0D1C 000:956.045 JLINK_IsHalted()
T0D1C 000:956.716 - 0.695ms returns FALSE
T0D1C 000:956.770 JLINK_HasError()
T0D1C 000:958.674 JLINK_IsHalted()
T0D1C 000:959.344 - 0.695ms returns FALSE
T0D1C 000:959.399 JLINK_HasError()
T0D1C 000:961.319 JLINK_IsHalted()
T0D1C 000:961.969 - 0.675ms returns FALSE
T0D1C 000:962.024 JLINK_HasError()
T0D1C 000:963.930 JLINK_IsHalted()
T0D1C 000:964.588 - 0.683ms returns FALSE
T0D1C 000:964.643 JLINK_HasError()
T0D1C 000:965.924 JLINK_IsHalted()
T0D1C 000:966.592 - 0.692ms returns FALSE
T0D1C 000:966.646 JLINK_HasError()
T0D1C 000:967.926 JLINK_IsHalted()
T0D1C 000:968.577 - 0.675ms returns FALSE
T0D1C 000:968.631 JLINK_HasError()
T0D1C 000:970.541 JLINK_IsHalted()
T0D1C 000:971.203 - 0.687ms returns FALSE
T0D1C 000:971.258 JLINK_HasError()
T0D1C 000:973.168 JLINK_IsHalted()
T0D1C 000:973.837 - 0.693ms returns FALSE
T0D1C 000:973.891 JLINK_HasError()
T0D1C 000:975.165 JLINK_IsHalted()
T0D1C 000:975.816 - 0.675ms returns FALSE
T0D1C 000:975.871 JLINK_HasError()
T0D1C 000:977.476 JLINK_IsHalted()
T0D1C 000:978.183 - 0.733ms returns FALSE
T0D1C 000:978.239 JLINK_HasError()
T0D1C 000:979.470 JLINK_IsHalted()
T0D1C 000:980.161 - 0.716ms returns FALSE
T0D1C 000:980.216 JLINK_HasError()
T0D1C 000:981.469 JLINK_IsHalted()
T0D1C 000:982.119 - 0.674ms returns FALSE
T0D1C 000:982.173 JLINK_HasError()
T0D1C 000:983.465 JLINK_IsHalted()
T0D1C 000:983.972 - 0.531ms returns FALSE
T0D1C 000:984.026 JLINK_HasError()
T0D1C 000:985.494 JLINK_IsHalted()
T0D1C 000:986.154 - 0.683ms returns FALSE
T0D1C 000:986.208 JLINK_HasError()
T0D1C 000:988.182 JLINK_IsHalted()
T0D1C 000:988.775 - 0.623ms returns FALSE
T0D1C 000:988.835 JLINK_HasError()
T0D1C 000:990.796 JLINK_IsHalted()
T0D1C 000:991.364 - 0.592ms returns FALSE
T0D1C 000:991.418 JLINK_HasError()
T0D1C 000:992.799 JLINK_IsHalted()
T0D1C 000:993.373 - 0.598ms returns FALSE
T0D1C 000:993.427 JLINK_HasError()
T0D1C 001:003.375 JLINK_IsHalted()
T0D1C 001:004.072 - 0.723ms returns FALSE
T0D1C 001:004.129 JLINK_HasError()
T0D1C 001:006.038 JLINK_IsHalted()
T0D1C 001:006.696 - 0.683ms returns FALSE
T0D1C 001:006.757 JLINK_HasError()
T0D1C 001:008.035 JLINK_IsHalted()
T0D1C 001:008.698 - 0.688ms returns FALSE
T0D1C 001:008.753 JLINK_HasError()
T0D1C 001:010.659 JLINK_IsHalted()
T0D1C 001:011.342 - 0.708ms returns FALSE
T0D1C 001:011.397 JLINK_HasError()
T0D1C 001:013.305 JLINK_IsHalted()
T0D1C 001:013.967 - 0.687ms returns FALSE
T0D1C 001:014.021 JLINK_HasError()
T0D1C 001:015.929 JLINK_IsHalted()
T0D1C 001:016.590 - 0.685ms returns FALSE
T0D1C 001:016.645 JLINK_HasError()
T0D1C 001:017.930 JLINK_IsHalted()
T0D1C 001:018.591 - 0.686ms returns FALSE
T0D1C 001:018.646 JLINK_HasError()
T0D1C 001:020.563 JLINK_IsHalted()
T0D1C 001:021.198 - 0.660ms returns FALSE
T0D1C 001:021.253 JLINK_HasError()
T0D1C 001:023.158 JLINK_IsHalted()
T0D1C 001:023.820 - 0.687ms returns FALSE
T0D1C 001:023.875 JLINK_HasError()
T0D1C 001:025.785 JLINK_IsHalted()
T0D1C 001:026.445 - 0.684ms returns FALSE
T0D1C 001:026.500 JLINK_HasError()
T0D1C 001:027.788 JLINK_IsHalted()
T0D1C 001:028.465 - 0.701ms returns FALSE
T0D1C 001:028.520 JLINK_HasError()
T0D1C 001:029.800 JLINK_IsHalted()
T0D1C 001:030.463 - 0.688ms returns FALSE
T0D1C 001:030.518 JLINK_HasError()
T0D1C 001:032.044 JLINK_IsHalted()
T0D1C 001:032.713 - 0.694ms returns FALSE
T0D1C 001:032.768 JLINK_HasError()
T0D1C 001:034.674 JLINK_IsHalted()
T0D1C 001:035.326 - 0.676ms returns FALSE
T0D1C 001:035.380 JLINK_HasError()
T0D1C 001:037.297 JLINK_IsHalted()
T0D1C 001:037.907 - 0.648ms returns FALSE
T0D1C 001:037.976 JLINK_HasError()
T0D1C 001:042.284 JLINK_IsHalted()
T0D1C 001:042.961 - 0.702ms returns FALSE
T0D1C 001:043.016 JLINK_HasError()
T0D1C 001:044.922 JLINK_IsHalted()
T0D1C 001:045.596 - 0.698ms returns FALSE
T0D1C 001:045.650 JLINK_HasError()
T0D1C 001:047.555 JLINK_IsHalted()
T0D1C 001:048.191 - 0.660ms returns FALSE
T0D1C 001:048.245 JLINK_HasError()
T0D1C 001:049.556 JLINK_IsHalted()
T0D1C 001:050.202 - 0.671ms returns FALSE
T0D1C 001:050.256 JLINK_HasError()
T0D1C 001:052.162 JLINK_IsHalted()
T0D1C 001:052.821 - 0.682ms returns FALSE
T0D1C 001:052.875 JLINK_HasError()
T0D1C 001:054.163 JLINK_IsHalted()
T0D1C 001:054.827 - 0.689ms returns FALSE
T0D1C 001:054.882 JLINK_HasError()
T0D1C 001:056.790 JLINK_IsHalted()
T0D1C 001:057.465 - 0.699ms returns FALSE
T0D1C 001:057.525 JLINK_HasError()
T0D1C 001:059.443 JLINK_IsHalted()
T0D1C 001:060.084 - 0.666ms returns FALSE
T0D1C 001:060.139 JLINK_HasError()
T0D1C 001:061.422 JLINK_IsHalted()
T0D1C 001:062.097 - 0.699ms returns FALSE
T0D1C 001:062.152 JLINK_HasError()
T0D1C 001:064.059 JLINK_IsHalted()
T0D1C 001:064.717 - 0.682ms returns FALSE
T0D1C 001:064.772 JLINK_HasError()
T0D1C 001:066.675 JLINK_IsHalted()
T0D1C 001:067.337 - 0.687ms returns FALSE
T0D1C 001:067.391 JLINK_HasError()
T0D1C 001:069.294 JLINK_IsHalted()
T0D1C 001:069.964 - 0.694ms returns FALSE
T0D1C 001:070.018 JLINK_HasError()
T0D1C 001:071.295 JLINK_IsHalted()
T0D1C 001:071.961 - 0.690ms returns FALSE
T0D1C 001:072.016 JLINK_HasError()
T0D1C 001:073.926 JLINK_IsHalted()
T0D1C 001:074.615 - 0.714ms returns FALSE
T0D1C 001:074.670 JLINK_HasError()
T0D1C 001:076.581 JLINK_IsHalted()
T0D1C 001:077.199 - 0.642ms returns FALSE
T0D1C 001:077.253 JLINK_HasError()
T0D1C 001:079.158 JLINK_IsHalted()
T0D1C 001:079.821 - 0.687ms returns FALSE
T0D1C 001:079.876 JLINK_HasError()
T0D1C 001:081.160 JLINK_IsHalted()
T0D1C 001:081.820 - 0.685ms returns FALSE
T0D1C 001:081.875 JLINK_HasError()
T0D1C 001:083.156 JLINK_IsHalted()
T0D1C 001:083.817 - 0.686ms returns FALSE
T0D1C 001:083.876 JLINK_HasError()
T0D1C 001:085.155 JLINK_IsHalted()
T0D1C 001:085.810 - 0.681ms returns FALSE
T0D1C 001:085.866 JLINK_HasError()
T0D1C 001:087.153 JLINK_IsHalted()
T0D1C 001:087.816 - 0.687ms returns FALSE
T0D1C 001:087.871 JLINK_HasError()
T0D1C 001:089.152 JLINK_IsHalted()
T0D1C 001:089.811 - 0.683ms returns FALSE
T0D1C 001:089.866 JLINK_HasError()
T0D1C 001:091.149 JLINK_IsHalted()
T0D1C 001:091.819 - 0.695ms returns FALSE
T0D1C 001:091.874 JLINK_HasError()
T0D1C 001:093.150 JLINK_IsHalted()
T0D1C 001:093.805 - 0.680ms returns FALSE
T0D1C 001:093.859 JLINK_HasError()
T0D1C 001:095.800 JLINK_IsHalted()
T0D1C 001:096.428 - 0.652ms returns FALSE
T0D1C 001:096.482 JLINK_HasError()
T0D1C 001:098.423 JLINK_IsHalted()
T0D1C 001:100.956 - 2.556ms returns TRUE
T0D1C 001:101.005 JLINK_ReadReg(R15 (PC))
T0D1C 001:101.043 - 0.054ms returns 0x20000000
T0D1C 001:101.082 JLINK_ClrBPEx(BPHandle = 0x00000002)
T0D1C 001:101.117 - 0.051ms returns 0x00
T0D1C 001:101.155 JLINK_ReadReg(R0)
T0D1C 001:101.189 - 0.050ms returns 0x00000000
T0D1C 001:154.681 JLINK_HasError()
T0D1C 001:154.750 JLINK_WriteReg(R0, 0x00000001)
T0D1C 001:154.793 - 0.061ms returns 0
T0D1C 001:154.834 JLINK_WriteReg(R1, 0x00B71B00)
T0D1C 001:154.869 - 0.051ms returns 0
T0D1C 001:154.907 JLINK_WriteReg(R2, 0x00000001)
T0D1C 001:154.941 - 0.050ms returns 0
T0D1C 001:154.979 JLINK_WriteReg(R3, 0x00000000)
T0D1C 001:155.013 - 0.050ms returns 0
T0D1C 001:155.051 JLINK_WriteReg(R4, 0x00000000)
T0D1C 001:155.085 - 0.050ms returns 0
T0D1C 001:155.123 JLINK_WriteReg(R5, 0x00000000)
T0D1C 001:155.157 - 0.050ms returns 0
T0D1C 001:155.195 JLINK_WriteReg(R6, 0x00000000)
T0D1C 001:155.228 - 0.050ms returns 0
T0D1C 001:155.266 JLINK_WriteReg(R7, 0x00000000)
T0D1C 001:155.303 - 0.053ms returns 0
T0D1C 001:155.341 JLINK_WriteReg(R8, 0x00000000)
T0D1C 001:155.375 - 0.050ms returns 0
T0D1C 001:155.413 JLINK_WriteReg(R9, 0x20000588)
T0D1C 001:155.447 - 0.050ms returns 0
T0D1C 001:155.484 JLINK_WriteReg(R10, 0x00000000)
T0D1C 001:155.518 - 0.050ms returns 0
T0D1C 001:155.556 JLINK_WriteReg(R11, 0x00000000)
T0D1C 001:155.590 - 0.050ms returns 0
T0D1C 001:155.628 JLINK_WriteReg(R12, 0x00000000)
T0D1C 001:155.661 - 0.050ms returns 0
T0D1C 001:155.699 JLINK_WriteReg(R13 (SP), 0x20001000)
T0D1C 001:155.735 - 0.052ms returns 0
T0D1C 001:155.773 JLINK_WriteReg(R14, 0x20000001)
T0D1C 001:155.807 - 0.050ms returns 0
T0D1C 001:155.845 JLINK_WriteReg(R15 (PC), 0x20000068)
T0D1C 001:155.879 - 0.050ms returns 0
T0D1C 001:155.916 JLINK_WriteReg(XPSR, 0x01000000)
T0D1C 001:155.950 - 0.050ms returns 0
T0D1C 001:155.988 JLINK_WriteReg(MSP, 0x20001000)
T0D1C 001:156.022 - 0.050ms returns 0
T0D1C 001:156.060 JLINK_WriteReg(PSP, 0x20001000)
T0D1C 001:156.094 - 0.050ms returns 0
T0D1C 001:156.132 JLINK_WriteReg(CFBP, 0x00000000)
T0D1C 001:156.165 - 0.050ms returns 0
T0D1C 001:156.204 JLINK_SetBPEx(Addr = 0x20000000, Type = 0xFFFFFFF2)
T0D1C 001:156.240 - 0.053ms returns 0x00000003
T0D1C 001:156.279 JLINK_Go()
T0D1C 001:156.326   CPU_WriteMem(4 bytes @ 0xE0002000)
T0D1C 001:156.947   CPU_ReadMem(4 bytes @ 0xE0001000)
T0D1C 001:160.294 - 4.052ms
T0D1C 001:160.368 JLINK_IsHalted()
T0D1C 001:162.920 - 2.576ms returns TRUE
T0D1C 001:162.977 JLINK_ReadReg(R15 (PC))
T0D1C 001:163.014 - 0.054ms returns 0x20000000
T0D1C 001:163.056 JLINK_ClrBPEx(BPHandle = 0x00000003)
T0D1C 001:163.092 - 0.051ms returns 0x00
T0D1C 001:163.133 JLINK_ReadReg(R0)
T0D1C 001:163.168 - 0.051ms returns 0x00000000
T0D1C 001:180.889 JLINK_WriteMem(0x20000000, 0x590 Bytes, ...)
T0D1C 001:180.917   Data:  00 BE 0A E0 0D 78 2D 06 68 40 08 24 40 00 00 D3 ...
T0D1C 001:180.957   CPU_WriteMem(1424 bytes @ 0x20000000)
T0D1C 001:185.542 - 4.671ms returns 0x590
T0D1C 001:185.614 JLINK_HasError()
T0D1C 001:185.636 JLINK_WriteReg(R0, 0x10000000)
T0D1C 001:185.656 - 0.028ms returns 0
T0D1C 001:185.676 JLINK_WriteReg(R1, 0x00B71B00)
T0D1C 001:185.693 - 0.025ms returns 0
T0D1C 001:185.712 JLINK_WriteReg(R2, 0x00000002)
T0D1C 001:185.728 - 0.025ms returns 0
T0D1C 001:185.747 JLINK_WriteReg(R3, 0x00000000)
T0D1C 001:185.864 - 0.125ms returns 0
T0D1C 001:185.884 JLINK_WriteReg(R4, 0x00000000)
T0D1C 001:185.901 - 0.025ms returns 0
T0D1C 001:185.920 JLINK_WriteReg(R5, 0x00000000)
T0D1C 001:185.937 - 0.025ms returns 0
T0D1C 001:185.956 JLINK_WriteReg(R6, 0x00000000)
T0D1C 001:185.973 - 0.025ms returns 0
T0D1C 001:185.992 JLINK_WriteReg(R7, 0x00000000)
T0D1C 001:186.008 - 0.025ms returns 0
T0D1C 001:186.027 JLINK_WriteReg(R8, 0x00000000)
T0D1C 001:186.044 - 0.025ms returns 0
T0D1C 001:186.063 JLINK_WriteReg(R9, 0x20000588)
T0D1C 001:186.080 - 0.025ms returns 0
T0D1C 001:186.099 JLINK_WriteReg(R10, 0x00000000)
T0D1C 001:186.116 - 0.025ms returns 0
T0D1C 001:186.135 JLINK_WriteReg(R11, 0x00000000)
T0D1C 001:186.151 - 0.025ms returns 0
T0D1C 001:186.170 JLINK_WriteReg(R12, 0x00000000)
T0D1C 001:186.187 - 0.025ms returns 0
T0D1C 001:186.206 JLINK_WriteReg(R13 (SP), 0x20001000)
T0D1C 001:186.224 - 0.026ms returns 0
T0D1C 001:186.243 JLINK_WriteReg(R14, 0x20000001)
T0D1C 001:186.260 - 0.025ms returns 0
T0D1C 001:186.279 JLINK_WriteReg(R15 (PC), 0x20000020)
T0D1C 001:186.298 - 0.027ms returns 0
T0D1C 001:186.317 JLINK_WriteReg(XPSR, 0x01000000)
T0D1C 001:186.334 - 0.025ms returns 0
T0D1C 001:186.352 JLINK_WriteReg(MSP, 0x20001000)
T0D1C 001:186.369 - 0.025ms returns 0
T0D1C 001:186.388 JLINK_WriteReg(PSP, 0x20001000)
T0D1C 001:186.405 - 0.025ms returns 0
T0D1C 001:186.424 JLINK_WriteReg(CFBP, 0x00000000)
T0D1C 001:186.441 - 0.025ms returns 0
T0D1C 001:186.460 JLINK_SetBPEx(Addr = 0x20000000, Type = 0xFFFFFFF2)
T0D1C 001:186.479 - 0.027ms returns 0x00000004
T0D1C 001:186.498 JLINK_Go()
T0D1C 001:186.521   CPU_WriteMem(4 bytes @ 0xE0002000)
T0D1C 001:187.068   CPU_ReadMem(4 bytes @ 0xE0001000)
T0D1C 001:189.894 - 3.414ms
T0D1C 001:189.933 JLINK_IsHalted()
T0D1C 001:192.300 - 2.385ms returns TRUE
T0D1C 001:192.338 JLINK_ReadReg(R15 (PC))
T0D1C 001:192.359 - 0.029ms returns 0x20000000
T0D1C 001:192.380 JLINK_ClrBPEx(BPHandle = 0x00000004)
T0D1C 001:192.398 - 0.026ms returns 0x00
T0D1C 001:192.420 JLINK_ReadReg(R0)
T0D1C 001:192.437 - 0.025ms returns 0x00000000
T0D1C 001:192.979 JLINK_WriteMem(0x200005B8, 0x200 Bytes, ...)
T0D1C 001:193.000   Data:  00 00 02 20 25 04 00 10 51 04 00 10 55 04 00 10 ...
T0D1C 001:193.034   CPU_WriteMem(512 bytes @ 0x200005B8)
T0D1C 001:194.958 - 1.997ms returns 0x200
T0D1C 001:194.994 JLINK_HasError()
T0D1C 001:195.015 JLINK_WriteReg(R0, 0x10000000)
T0D1C 001:195.037 - 0.030ms returns 0
T0D1C 001:195.056 JLINK_WriteReg(R1, 0x00000200)
T0D1C 001:195.074 - 0.025ms returns 0
T0D1C 001:195.093 JLINK_WriteReg(R2, 0x200005B8)
T0D1C 001:195.110 - 0.025ms returns 0
T0D1C 001:195.129 JLINK_WriteReg(R3, 0x00000000)
T0D1C 001:195.146 - 0.025ms returns 0
T0D1C 001:195.165 JLINK_WriteReg(R4, 0x00000000)
T0D1C 001:195.182 - 0.025ms returns 0
T0D1C 001:195.201 JLINK_WriteReg(R5, 0x00000000)
T0D1C 001:195.218 - 0.025ms returns 0
T0D1C 001:195.237 JLINK_WriteReg(R6, 0x00000000)
T0D1C 001:195.254 - 0.025ms returns 0
T0D1C 001:195.273 JLINK_WriteReg(R7, 0x00000000)
T0D1C 001:195.292 - 0.027ms returns 0
T0D1C 001:195.311 JLINK_WriteReg(R8, 0x00000000)
T0D1C 001:195.328 - 0.025ms returns 0
T0D1C 001:195.347 JLINK_WriteReg(R9, 0x20000588)
T0D1C 001:195.364 - 0.025ms returns 0
T0D1C 001:195.383 JLINK_WriteReg(R10, 0x00000000)
T0D1C 001:195.400 - 0.025ms returns 0
T0D1C 001:195.419 JLINK_WriteReg(R11, 0x00000000)
T0D1C 001:195.436 - 0.025ms returns 0
T0D1C 001:195.455 JLINK_WriteReg(R12, 0x00000000)
T0D1C 001:195.472 - 0.025ms returns 0
T0D1C 001:195.491 JLINK_WriteReg(R13 (SP), 0x20001000)
T0D1C 001:195.509 - 0.026ms returns 0
T0D1C 001:195.528 JLINK_WriteReg(R14, 0x20000001)
T0D1C 001:195.545 - 0.025ms returns 0
T0D1C 001:195.564 JLINK_WriteReg(R15 (PC), 0x200000D8)
T0D1C 001:195.581 - 0.025ms returns 0
T0D1C 001:195.600 JLINK_WriteReg(XPSR, 0x01000000)
T0D1C 001:195.617 - 0.025ms returns 0
T0D1C 001:195.636 JLINK_WriteReg(MSP, 0x20001000)
T0D1C 001:195.653 - 0.025ms returns 0
T0D1C 001:195.672 JLINK_WriteReg(PSP, 0x20001000)
T0D1C 001:195.695 - 0.033ms returns 0
T0D1C 001:195.716 JLINK_WriteReg(CFBP, 0x00000000)
T0D1C 001:195.733 - 0.025ms returns 0
T0D1C 001:195.752 JLINK_SetBPEx(Addr = 0x20000000, Type = 0xFFFFFFF2)
T0D1C 001:195.771 - 0.027ms returns 0x00000005
T0D1C 001:195.791 JLINK_Go()
T0D1C 001:195.814   CPU_WriteMem(4 bytes @ 0xE0002000)
T0D1C 001:196.378   CPU_ReadMem(4 bytes @ 0xE0001000)
T0D1C 001:199.271 - 3.499ms
T0D1C 001:199.306 JLINK_IsHalted()
T0D1C 001:199.907 - 0.620ms returns FALSE
T0D1C 001:199.942 JLINK_HasError()
T0D1C 001:204.269 JLINK_IsHalted()
T0D1C 001:204.732 - 0.475ms returns FALSE
T0D1C 001:204.760 JLINK_HasError()
T0D1C 001:206.267 JLINK_IsHalted()
T0D1C 001:208.467 - 2.211ms returns TRUE
T0D1C 001:208.491 JLINK_ReadReg(R15 (PC))
T0D1C 001:208.510 - 0.027ms returns 0x20000000
T0D1C 001:208.529 JLINK_ClrBPEx(BPHandle = 0x00000005)
T0D1C 001:208.547 - 0.026ms returns 0x00
T0D1C 001:208.566 JLINK_ReadReg(R0)
T0D1C 001:208.583 - 0.025ms returns 0x00000000
T0D1C 001:209.446 JLINK_WriteMem(0x200005B8, 0x200 Bytes, ...)
T0D1C 001:209.467   Data:  4D 04 00 10 4D 04 00 10 4D 04 00 10 2D 05 00 10 ...
T0D1C 001:209.500   CPU_WriteMem(512 bytes @ 0x200005B8)
T0D1C 001:211.514 - 2.080ms returns 0x200
T0D1C 001:211.542 JLINK_HasError()
T0D1C 001:211.565 JLINK_WriteReg(R0, 0x10000200)
T0D1C 001:211.586 - 0.029ms returns 0
T0D1C 001:211.606 JLINK_WriteReg(R1, 0x00000200)
T0D1C 001:211.622 - 0.025ms returns 0
T0D1C 001:211.642 JLINK_WriteReg(R2, 0x200005B8)
T0D1C 001:211.659 - 0.025ms returns 0
T0D1C 001:211.678 JLINK_WriteReg(R3, 0x00000000)
T0D1C 001:211.694 - 0.025ms returns 0
T0D1C 001:211.713 JLINK_WriteReg(R4, 0x00000000)
T0D1C 001:211.730 - 0.025ms returns 0
T0D1C 001:211.749 JLINK_WriteReg(R5, 0x00000000)
T0D1C 001:211.766 - 0.025ms returns 0
T0D1C 001:211.785 JLINK_WriteReg(R6, 0x00000000)
T0D1C 001:211.801 - 0.025ms returns 0
T0D1C 001:211.820 JLINK_WriteReg(R7, 0x00000000)
T0D1C 001:211.837 - 0.025ms returns 0
T0D1C 001:211.856 JLINK_WriteReg(R8, 0x00000000)
T0D1C 001:211.873 - 0.025ms returns 0
T0D1C 001:211.892 JLINK_WriteReg(R9, 0x20000588)
T0D1C 001:211.909 - 0.025ms returns 0
T0D1C 001:211.927 JLINK_WriteReg(R10, 0x00000000)
T0D1C 001:211.944 - 0.025ms returns 0
T0D1C 001:211.963 JLINK_WriteReg(R11, 0x00000000)
T0D1C 001:211.980 - 0.025ms returns 0
T0D1C 001:211.999 JLINK_WriteReg(R12, 0x00000000)
T0D1C 001:212.016 - 0.025ms returns 0
T0D1C 001:212.035 JLINK_WriteReg(R13 (SP), 0x20001000)
T0D1C 001:212.052 - 0.025ms returns 0
T0D1C 001:212.071 JLINK_WriteReg(R14, 0x20000001)
T0D1C 001:212.088 - 0.025ms returns 0
T0D1C 001:212.107 JLINK_WriteReg(R15 (PC), 0x200000D8)
T0D1C 001:212.123 - 0.025ms returns 0
T0D1C 001:212.142 JLINK_WriteReg(XPSR, 0x01000000)
T0D1C 001:212.159 - 0.025ms returns 0
T0D1C 001:212.178 JLINK_WriteReg(MSP, 0x20001000)
T0D1C 001:212.195 - 0.024ms returns 0
T0D1C 001:212.214 JLINK_WriteReg(PSP, 0x20001000)
T0D1C 001:212.231 - 0.025ms returns 0
T0D1C 001:212.249 JLINK_WriteReg(CFBP, 0x00000000)
T0D1C 001:212.266 - 0.025ms returns 0
T0D1C 001:212.285 JLINK_SetBPEx(Addr = 0x20000000, Type = 0xFFFFFFF2)
T0D1C 001:212.303 - 0.026ms returns 0x00000006
T0D1C 001:212.323 JLINK_Go()
T0D1C 001:212.344   CPU_WriteMem(4 bytes @ 0xE0002000)
T0D1C 001:212.869   CPU_ReadMem(4 bytes @ 0xE0001000)
T0D1C 001:215.637 - 3.326ms
T0D1C 001:215.665 JLINK_IsHalted()
T0D1C 001:216.110 - 0.457ms returns FALSE
T0D1C 001:216.137 JLINK_HasError()
T0D1C 001:218.129 JLINK_IsHalted()
T0D1C 001:218.611 - 0.494ms returns FALSE
T0D1C 001:218.642 JLINK_HasError()
T0D1C 001:220.625 JLINK_IsHalted()
T0D1C 001:221.108 - 0.495ms returns FALSE
T0D1C 001:221.135 JLINK_HasError()
T0D1C 001:223.126 JLINK_IsHalted()
T0D1C 001:225.376 - 2.262ms returns TRUE
T0D1C 001:225.403 JLINK_ReadReg(R15 (PC))
T0D1C 001:225.424 - 0.031ms returns 0x20000000
T0D1C 001:225.445 JLINK_ClrBPEx(BPHandle = 0x00000006)
T0D1C 001:225.462 - 0.025ms returns 0x00
T0D1C 001:225.481 JLINK_ReadReg(R0)
T0D1C 001:225.499 - 0.025ms returns 0x00000000
T0D1C 001:226.251 JLINK_WriteMem(0x200005B8, 0x200 Bytes, ...)
T0D1C 001:226.280   Data:  FF FF FF FF FF FF FF FF FF FF FF FF FE FF FF FF ...
T0D1C 001:226.313   CPU_WriteMem(512 bytes @ 0x200005B8)
T0D1C 001:228.385 - 2.146ms returns 0x200
T0D1C 001:228.413 JLINK_HasError()
T0D1C 001:228.436 JLINK_WriteReg(R0, 0x10000400)
T0D1C 001:228.457 - 0.028ms returns 0
T0D1C 001:228.476 JLINK_WriteReg(R1, 0x00000200)
T0D1C 001:228.493 - 0.025ms returns 0
T0D1C 001:228.512 JLINK_WriteReg(R2, 0x200005B8)
T0D1C 001:228.529 - 0.025ms returns 0
T0D1C 001:228.547 JLINK_WriteReg(R3, 0x00000000)
T0D1C 001:228.564 - 0.025ms returns 0
T0D1C 001:228.583 JLINK_WriteReg(R4, 0x00000000)
T0D1C 001:228.600 - 0.024ms returns 0
T0D1C 001:228.619 JLINK_WriteReg(R5, 0x00000000)
T0D1C 001:228.635 - 0.024ms returns 0
T0D1C 001:228.654 JLINK_WriteReg(R6, 0x00000000)
T0D1C 001:228.671 - 0.024ms returns 0
T0D1C 001:228.690 JLINK_WriteReg(R7, 0x00000000)
T0D1C 001:228.706 - 0.024ms returns 0
T0D1C 001:228.725 JLINK_WriteReg(R8, 0x00000000)
T0D1C 001:228.742 - 0.024ms returns 0
T0D1C 001:228.760 JLINK_WriteReg(R9, 0x20000588)
T0D1C 001:228.777 - 0.024ms returns 0
T0D1C 001:228.796 JLINK_WriteReg(R10, 0x00000000)
T0D1C 001:228.813 - 0.024ms returns 0
T0D1C 001:228.832 JLINK_WriteReg(R11, 0x00000000)
T0D1C 001:228.848 - 0.025ms returns 0
T0D1C 001:228.867 JLINK_WriteReg(R12, 0x00000000)
T0D1C 001:228.884 - 0.025ms returns 0
T0D1C 001:228.903 JLINK_WriteReg(R13 (SP), 0x20001000)
T0D1C 001:228.920 - 0.025ms returns 0
T0D1C 001:228.939 JLINK_WriteReg(R14, 0x20000001)
T0D1C 001:228.956 - 0.025ms returns 0
T0D1C 001:228.975 JLINK_WriteReg(R15 (PC), 0x200000D8)
T0D1C 001:228.991 - 0.025ms returns 0
T0D1C 001:229.010 JLINK_WriteReg(XPSR, 0x01000000)
T0D1C 001:229.027 - 0.025ms returns 0
T0D1C 001:229.046 JLINK_WriteReg(MSP, 0x20001000)
T0D1C 001:229.063 - 0.024ms returns 0
T0D1C 001:229.081 JLINK_WriteReg(PSP, 0x20001000)
T0D1C 001:229.098 - 0.025ms returns 0
T0D1C 001:229.117 JLINK_WriteReg(CFBP, 0x00000000)
T0D1C 001:229.134 - 0.025ms returns 0
T0D1C 001:229.153 JLINK_SetBPEx(Addr = 0x20000000, Type = 0xFFFFFFF2)
T0D1C 001:229.171 - 0.026ms returns 0x00000007
T0D1C 001:229.190 JLINK_Go()
T0D1C 001:229.209   CPU_WriteMem(4 bytes @ 0xE0002000)
T0D1C 001:229.782   CPU_ReadMem(4 bytes @ 0xE0001000)
T0D1C 001:232.640 - 3.462ms
T0D1C 001:232.667 JLINK_IsHalted()
T0D1C 001:233.108 - 0.453ms returns FALSE
T0D1C 001:233.135 JLINK_HasError()
T0D1C 001:235.123 JLINK_IsHalted()
T0D1C 001:235.625 - 0.513ms returns FALSE
T0D1C 001:235.652 JLINK_HasError()
T0D1C 001:237.120 JLINK_IsHalted()
T0D1C 001:237.619 - 0.523ms returns FALSE
T0D1C 001:237.658 JLINK_HasError()
T0D1C 001:239.129 JLINK_IsHalted()
T0D1C 001:241.362 - 2.255ms returns TRUE
T0D1C 001:241.409 JLINK_ReadReg(R15 (PC))
T0D1C 001:241.445 - 0.052ms returns 0x20000000
T0D1C 001:241.483 JLINK_ClrBPEx(BPHandle = 0x00000007)
T0D1C 001:241.518 - 0.051ms returns 0x00
T0D1C 001:241.556 JLINK_ReadReg(R0)
T0D1C 001:241.590 - 0.050ms returns 0x00000000
T0D1C 001:243.070 JLINK_WriteMem(0x200005B8, 0x200 Bytes, ...)
T0D1C 001:243.111   Data:  A1 0A 00 10 A1 0A 00 10 A1 0A 00 10 A1 0A 00 10 ...
T0D1C 001:243.169   CPU_WriteMem(512 bytes @ 0x200005B8)
T0D1C 001:245.262 - 2.215ms returns 0x200
T0D1C 001:245.321 JLINK_HasError()
T0D1C 001:245.366 JLINK_WriteReg(R0, 0x10000600)
T0D1C 001:245.403 - 0.053ms returns 0
T0D1C 001:245.445 JLINK_WriteReg(R1, 0x00000200)
T0D1C 001:245.479 - 0.050ms returns 0
T0D1C 001:245.520 JLINK_WriteReg(R2, 0x200005B8)
T0D1C 001:245.554 - 0.050ms returns 0
T0D1C 001:245.595 JLINK_WriteReg(R3, 0x00000000)
T0D1C 001:245.629 - 0.050ms returns 0
T0D1C 001:245.670 JLINK_WriteReg(R4, 0x00000000)
T0D1C 001:245.703 - 0.050ms returns 0
T0D1C 001:245.744 JLINK_WriteReg(R5, 0x00000000)
T0D1C 001:245.778 - 0.050ms returns 0
T0D1C 001:245.819 JLINK_WriteReg(R6, 0x00000000)
T0D1C 001:245.853 - 0.050ms returns 0
T0D1C 001:245.894 JLINK_WriteReg(R7, 0x00000000)
T0D1C 001:245.927 - 0.050ms returns 0
T0D1C 001:245.968 JLINK_WriteReg(R8, 0x00000000)
T0D1C 001:246.009 - 0.061ms returns 0
T0D1C 001:246.055 JLINK_WriteReg(R9, 0x20000588)
T0D1C 001:246.089 - 0.064ms returns 0
T0D1C 001:246.146 JLINK_WriteReg(R10, 0x00000000)
T0D1C 001:246.180 - 0.050ms returns 0
T0D1C 001:246.221 JLINK_WriteReg(R11, 0x00000000)
T0D1C 001:246.255 - 0.050ms returns 0
T0D1C 001:246.296 JLINK_WriteReg(R12, 0x00000000)
T0D1C 001:246.330 - 0.050ms returns 0
T0D1C 001:246.371 JLINK_WriteReg(R13 (SP), 0x20001000)
T0D1C 001:246.406 - 0.051ms returns 0
T0D1C 001:246.447 JLINK_WriteReg(R14, 0x20000001)
T0D1C 001:246.481 - 0.050ms returns 0
T0D1C 001:246.523 JLINK_WriteReg(R15 (PC), 0x200000D8)
T0D1C 001:246.557 - 0.050ms returns 0
T0D1C 001:246.598 JLINK_WriteReg(XPSR, 0x01000000)
T0D1C 001:246.632 - 0.050ms returns 0
T0D1C 001:246.674 JLINK_WriteReg(MSP, 0x20001000)
T0D1C 001:246.708 - 0.050ms returns 0
T0D1C 001:246.750 JLINK_WriteReg(PSP, 0x20001000)
T0D1C 001:246.784 - 0.050ms returns 0
T0D1C 001:246.825 JLINK_WriteReg(CFBP, 0x00000000)
T0D1C 001:246.859 - 0.050ms returns 0
T0D1C 001:246.900 JLINK_SetBPEx(Addr = 0x20000000, Type = 0xFFFFFFF2)
T0D1C 001:246.937 - 0.053ms returns 0x00000008
T0D1C 001:246.979 JLINK_Go()
T0D1C 001:247.019   CPU_WriteMem(4 bytes @ 0xE0002000)
T0D1C 001:247.627   CPU_ReadMem(4 bytes @ 0xE0001000)
T0D1C 001:250.470 - 3.515ms
T0D1C 001:250.531 JLINK_IsHalted()
T0D1C 001:251.094 - 0.586ms returns FALSE
T0D1C 001:251.152 JLINK_HasError()
T0D1C 001:253.102 JLINK_IsHalted()
T0D1C 001:253.594 - 0.516ms returns FALSE
T0D1C 001:253.648 JLINK_HasError()
T0D1C 001:255.611 JLINK_IsHalted()
T0D1C 001:256.116 - 0.543ms returns FALSE
T0D1C 001:256.183 JLINK_HasError()
T0D1C 001:260.596 JLINK_IsHalted()
T0D1C 001:263.055 - 2.483ms returns TRUE
T0D1C 001:263.106 JLINK_ReadReg(R15 (PC))
T0D1C 001:263.143 - 0.053ms returns 0x20000000
T0D1C 001:263.182 JLINK_ClrBPEx(BPHandle = 0x00000008)
T0D1C 001:263.217 - 0.051ms returns 0x00
T0D1C 001:263.255 JLINK_ReadReg(R0)
T0D1C 001:263.289 - 0.050ms returns 0x00000000
T0D1C 001:264.836 JLINK_WriteMem(0x200005B8, 0x200 Bytes, ...)
T0D1C 001:264.877   Data:  14 98 0E 91 02 F0 8C FA 11 98 AD F8 70 00 0E 21 ...
T0D1C 001:264.938   CPU_WriteMem(512 bytes @ 0x200005B8)
T0D1C 001:267.049 - 2.236ms returns 0x200
T0D1C 001:267.103 JLINK_HasError()
T0D1C 001:267.144 JLINK_WriteReg(R0, 0x10000800)
T0D1C 001:267.182 - 0.054ms returns 0
T0D1C 001:267.220 JLINK_WriteReg(R1, 0x00000200)
T0D1C 001:267.254 - 0.050ms returns 0
T0D1C 001:267.292 JLINK_WriteReg(R2, 0x200005B8)
T0D1C 001:267.326 - 0.050ms returns 0
T0D1C 001:267.364 JLINK_WriteReg(R3, 0x00000000)
T0D1C 001:267.397 - 0.050ms returns 0
T0D1C 001:267.435 JLINK_WriteReg(R4, 0x00000000)
T0D1C 001:267.469 - 0.049ms returns 0
T0D1C 001:267.506 JLINK_WriteReg(R5, 0x00000000)
T0D1C 001:267.540 - 0.050ms returns 0
T0D1C 001:267.578 JLINK_WriteReg(R6, 0x00000000)
T0D1C 001:267.611 - 0.050ms returns 0
T0D1C 001:267.649 JLINK_WriteReg(R7, 0x00000000)
T0D1C 001:267.683 - 0.050ms returns 0
T0D1C 001:267.721 JLINK_WriteReg(R8, 0x00000000)
T0D1C 001:267.754 - 0.050ms returns 0
T0D1C 001:267.792 JLINK_WriteReg(R9, 0x20000588)
T0D1C 001:267.826 - 0.050ms returns 0
T0D1C 001:267.864 JLINK_WriteReg(R10, 0x00000000)
T0D1C 001:267.898 - 0.050ms returns 0
T0D1C 001:267.935 JLINK_WriteReg(R11, 0x00000000)
T0D1C 001:267.969 - 0.050ms returns 0
T0D1C 001:268.007 JLINK_WriteReg(R12, 0x00000000)
T0D1C 001:268.045 - 0.055ms returns 0
T0D1C 001:268.083 JLINK_WriteReg(R13 (SP), 0x20001000)
T0D1C 001:268.118 - 0.050ms returns 0
T0D1C 001:268.155 JLINK_WriteReg(R14, 0x20000001)
T0D1C 001:268.189 - 0.050ms returns 0
T0D1C 001:268.227 JLINK_WriteReg(R15 (PC), 0x200000D8)
T0D1C 001:268.260 - 0.050ms returns 0
T0D1C 001:268.298 JLINK_WriteReg(XPSR, 0x01000000)
T0D1C 001:268.332 - 0.050ms returns 0
T0D1C 001:268.369 JLINK_WriteReg(MSP, 0x20001000)
T0D1C 001:268.403 - 0.050ms returns 0
T0D1C 001:268.440 JLINK_WriteReg(PSP, 0x20001000)
T0D1C 001:268.474 - 0.049ms returns 0
T0D1C 001:268.511 JLINK_WriteReg(CFBP, 0x00000000)
T0D1C 001:268.545 - 0.057ms returns 0
T0D1C 001:268.596 JLINK_SetBPEx(Addr = 0x20000000, Type = 0xFFFFFFF2)
T0D1C 001:268.632 - 0.053ms returns 0x00000009
T0D1C 001:268.671 JLINK_Go()
T0D1C 001:268.710   CPU_WriteMem(4 bytes @ 0xE0002000)
T0D1C 001:269.331   CPU_ReadMem(4 bytes @ 0xE0001000)
T0D1C 001:272.677 - 4.030ms
T0D1C 001:272.731 JLINK_IsHalted()
T0D1C 001:273.300 - 0.593ms returns FALSE
T0D1C 001:273.354 JLINK_HasError()
T0D1C 001:275.322 JLINK_IsHalted()
T0D1C 001:275.935 - 0.637ms returns FALSE
T0D1C 001:275.990 JLINK_HasError()
T0D1C 001:277.342 JLINK_IsHalted()
T0D1C 001:278.054 - 0.736ms returns FALSE
T0D1C 001:278.108 JLINK_HasError()
T0D1C 001:280.059 JLINK_IsHalted()
T0D1C 001:282.528 - 2.493ms returns TRUE
T0D1C 001:282.579 JLINK_ReadReg(R15 (PC))
T0D1C 001:282.615 - 0.053ms returns 0x20000000
T0D1C 001:282.654 JLINK_ClrBPEx(BPHandle = 0x00000009)
T0D1C 001:282.688 - 0.051ms returns 0x00
T0D1C 001:282.726 JLINK_ReadReg(R0)
T0D1C 001:282.760 - 0.050ms returns 0x00000000
T0D1C 001:284.264 JLINK_WriteMem(0x200005B8, 0x200 Bytes, ...)
T0D1C 001:284.304   Data:  13 9A 02 F0 E9 FA 1E 21 01 98 13 9A 02 F0 E4 FA ...
T0D1C 001:284.364   CPU_WriteMem(512 bytes @ 0x200005B8)
T0D1C 001:286.508 - 2.268ms returns 0x200
T0D1C 001:286.562 JLINK_HasError()
T0D1C 001:286.604 JLINK_WriteReg(R0, 0x10000A00)
T0D1C 001:286.644 - 0.056ms returns 0
T0D1C 001:286.682 JLINK_WriteReg(R1, 0x00000200)
T0D1C 001:286.716 - 0.050ms returns 0
T0D1C 001:286.754 JLINK_WriteReg(R2, 0x200005B8)
T0D1C 001:286.787 - 0.050ms returns 0
T0D1C 001:286.825 JLINK_WriteReg(R3, 0x00000000)
T0D1C 001:286.859 - 0.050ms returns 0
T0D1C 001:286.897 JLINK_WriteReg(R4, 0x00000000)
T0D1C 001:286.930 - 0.050ms returns 0
T0D1C 001:286.968 JLINK_WriteReg(R5, 0x00000000)
T0D1C 001:287.002 - 0.050ms returns 0
T0D1C 001:287.039 JLINK_WriteReg(R6, 0x00000000)
T0D1C 001:287.073 - 0.050ms returns 0
T0D1C 001:287.111 JLINK_WriteReg(R7, 0x00000000)
